Sample in Buffer,Sample in Window,TRIGGER,design_1_i/sensor_ss/sensor_ila/inst/probe0_1[3:0],design_1_i/sensor_ss/sensor_ila/inst/probe1_1[3:0],design_1_i/sensor_ss/sensor_ila/inst/probe2_1[11:0],design_1_i/sensor_ss/sensor_ila/inst/probe3_1[11:0],design_1_i/sensor_ss/sensor_ila/inst/probe4_1[9:0],design_1_i/sensor_ss/sensor_ila/inst/probe5_1,design_1_i/sensor_ss/sensor_ila/inst/probe6_1[31:0],design_1_i/sensor_ss/sensor_ila/inst/probe7_1,design_1_i/sensor_ss/sensor_ila/inst/net_slot_0_axis_tdata[31:0],design_1_i/sensor_ss/sensor_ila/inst/net_slot_0_axis_tvalid,design_1_i/sensor_ss/sensor_ila/inst/net_slot_0_axis_tready,design_1_i/sensor_ss/sensor_ila/inst/net_slot_0_axis_tlast,Interface_(i2:s0)_(sensor_data_acquisition_data)[2:0],T_Channel_(i2:s0)_(sensor_data_acquisition_data)[2:0]
Radix - UNSIGNED,UNSIGNED,UNSIGNED,HEX,HEX,UNSIGNED,UNSIGNED,UNSIGNED,HEX,HEX,HEX,UNSIGNED,HEX,HEX,HEX,HEX,HEX
0,0,0,4,3,728,728,911,1,00008001,1,0,0,0,0,"Inactive","No Streams"
1,1,0,4,3,721,721,912,1,00008001,1,0,0,0,0,"Inactive","No Streams"
2,2,0,4,3,725,725,913,1,00008001,1,0,0,0,0,"Inactive","No Streams"
3,3,0,4,3,720,720,914,1,00008001,1,0,0,0,0,"Inactive","No Streams"
4,4,0,4,3,726,726,915,1,00008001,1,0,0,0,0,"Inactive","No Streams"
5,5,0,4,3,718,718,916,1,00008001,1,0,0,0,0,"Inactive","No Streams"
6,6,0,4,3,717,717,917,1,00008001,1,0,0,0,0,"Inactive","No Streams"
7,7,0,4,3,716,716,918,1,00008001,1,0,0,0,0,"Inactive","No Streams"
8,8,0,4,3,722,722,919,1,00008001,1,0,0,0,0,"Inactive","No Streams"
9,9,0,4,3,729,729,920,1,00008001,1,0,0,0,0,"Inactive","No Streams"
10,10,0,4,3,721,721,921,1,00008001,1,0,0,0,0,"Inactive","No Streams"
11,11,0,4,3,728,728,922,1,00008001,1,0,0,0,0,"Inactive","No Streams"
12,12,0,4,3,721,721,923,1,00008001,1,0,0,0,0,"Inactive","No Streams"
13,13,0,4,3,724,724,924,1,00008001,1,0,0,0,0,"Inactive","No Streams"
14,14,0,4,3,719,719,925,1,00008001,1,0,0,0,0,"Inactive","No Streams"
15,15,0,4,3,719,719,926,1,00008001,1,0,0,0,0,"Inactive","No Streams"
16,16,0,4,3,718,718,927,1,00008001,1,0,0,0,0,"Inactive","No Streams"
17,17,0,4,3,735,735,928,1,00008001,1,0,0,0,0,"Inactive","No Streams"
18,18,0,4,3,710,710,929,1,00008001,1,0,0,0,0,"Inactive","No Streams"
19,19,0,4,3,741,741,930,1,00008001,1,0,0,0,0,"Inactive","No Streams"
20,20,0,4,3,710,710,931,1,00008001,1,0,0,0,0,"Inactive","No Streams"
21,21,0,4,3,729,729,932,1,00008001,1,0,0,0,0,"Inactive","No Streams"
22,22,0,4,3,727,727,933,1,00008001,1,0,0,0,0,"Inactive","No Streams"
23,23,0,4,3,732,732,934,1,00008001,1,0,0,0,0,"Inactive","No Streams"
24,24,0,4,3,727,727,935,1,00008001,1,0,0,0,0,"Inactive","No Streams"
25,25,0,4,3,715,715,936,1,00008001,1,0,0,0,0,"Inactive","No Streams"
26,26,0,4,3,714,714,937,1,00008001,1,0,0,0,0,"Inactive","No Streams"
27,27,0,4,3,723,723,938,1,00008001,1,0,0,0,0,"Inactive","No Streams"
28,28,0,4,3,732,732,939,1,00008001,1,0,0,0,0,"Inactive","No Streams"
29,29,0,4,3,725,725,940,1,00008001,1,0,0,0,0,"Inactive","No Streams"
30,30,0,4,3,716,716,941,1,00008001,1,0,0,0,0,"Inactive","No Streams"
31,31,0,4,3,723,723,942,1,00008001,1,0,0,0,0,"Inactive","No Streams"
32,32,0,4,3,733,733,943,1,00008001,1,0,0,0,0,"Inactive","No Streams"
33,33,0,4,3,711,711,944,1,00008001,1,0,0,0,0,"Inactive","No Streams"
34,34,0,4,3,706,706,945,1,00008001,1,0,0,0,0,"Inactive","No Streams"
35,35,0,4,3,724,724,946,1,00008001,1,0,0,0,0,"Inactive","No Streams"
36,36,0,4,3,715,715,947,1,00008001,1,0,0,0,0,"Inactive","No Streams"
37,37,0,4,3,716,716,948,1,00008001,1,0,0,0,0,"Inactive","No Streams"
38,38,0,4,3,709,709,949,1,00008001,1,0,0,0,0,"Inactive","No Streams"
39,39,0,4,3,720,720,950,1,00008001,1,0,0,0,0,"Inactive","No Streams"
40,40,0,4,3,713,713,951,1,00008001,1,0,0,0,0,"Inactive","No Streams"
41,41,0,4,3,716,716,952,1,00008001,1,0,0,0,0,"Inactive","No Streams"
42,42,0,4,3,719,719,953,1,00008001,1,0,0,0,0,"Inactive","No Streams"
43,43,0,4,3,713,713,954,1,00008001,1,0,0,0,0,"Inactive","No Streams"
44,44,0,4,3,724,724,955,1,00008001,1,0,0,0,0,"Inactive","No Streams"
45,45,0,4,3,720,720,956,1,00008001,1,0,0,0,0,"Inactive","No Streams"
46,46,0,4,3,706,706,957,1,00008001,1,0,0,0,0,"Inactive","No Streams"
47,47,0,4,3,724,724,958,1,00008001,1,0,0,0,0,"Inactive","No Streams"
48,48,0,4,3,719,719,959,1,00008001,1,0,0,0,0,"Inactive","No Streams"
49,49,0,4,3,720,720,960,1,00008001,1,0,0,0,0,"Inactive","No Streams"
50,50,0,4,3,739,739,961,1,00008001,1,0,0,0,0,"Inactive","No Streams"
51,51,0,4,3,727,727,962,1,00008001,1,0,0,0,0,"Inactive","No Streams"
52,52,0,4,3,718,718,963,1,00008001,1,0,0,0,0,"Inactive","No Streams"
53,53,0,4,3,724,724,964,1,00008001,1,0,0,0,0,"Inactive","No Streams"
54,54,0,4,3,725,725,965,1,00008001,1,0,0,0,0,"Inactive","No Streams"
55,55,0,4,3,726,726,966,1,00008001,1,0,0,0,0,"Inactive","No Streams"
56,56,0,4,3,714,714,967,1,00008001,1,0,0,0,0,"Inactive","No Streams"
57,57,0,4,3,723,723,968,1,00008001,1,0,0,0,0,"Inactive","No Streams"
58,58,0,4,3,718,718,969,1,00008001,1,0,0,0,0,"Inactive","No Streams"
59,59,0,4,3,728,728,970,1,00008001,1,0,0,0,0,"Inactive","No Streams"
60,60,0,4,3,712,712,971,1,00008001,1,0,0,0,0,"Inactive","No Streams"
61,61,0,4,3,720,720,972,1,00008001,1,0,0,0,0,"Inactive","No Streams"
62,62,0,4,3,707,707,973,1,00008001,1,0,0,0,0,"Inactive","No Streams"
63,63,0,4,3,712,712,974,1,00008001,1,0,0,0,0,"Inactive","No Streams"
64,64,0,4,3,721,721,975,1,00008001,1,0,0,0,0,"Inactive","No Streams"
65,65,0,4,3,716,716,976,1,00008001,1,0,0,0,0,"Inactive","No Streams"
66,66,0,4,3,714,714,977,1,00008001,1,0,0,0,0,"Inactive","No Streams"
67,67,0,4,3,731,731,978,1,00008001,1,0,0,0,0,"Inactive","No Streams"
68,68,0,4,3,725,725,979,1,00008001,1,0,0,0,0,"Inactive","No Streams"
69,69,0,4,3,722,722,980,1,00008001,1,0,0,0,0,"Inactive","No Streams"
70,70,0,4,3,714,714,981,1,00008001,1,0,0,0,0,"Inactive","No Streams"
71,71,0,4,3,721,721,982,1,00008001,1,0,0,0,0,"Inactive","No Streams"
72,72,0,4,3,722,722,983,1,00008001,1,0,0,0,0,"Inactive","No Streams"
73,73,0,4,3,715,715,984,1,00008001,1,0,0,0,0,"Inactive","No Streams"
74,74,0,4,3,718,718,985,1,00008001,1,0,0,0,0,"Inactive","No Streams"
75,75,0,4,3,723,723,986,1,00008001,1,0,0,0,0,"Inactive","No Streams"
76,76,0,4,3,711,711,987,1,00008001,1,0,0,0,0,"Inactive","No Streams"
77,77,0,4,3,718,718,988,1,00008001,1,0,0,0,0,"Inactive","No Streams"
78,78,0,4,3,718,718,989,1,00008001,1,0,0,0,0,"Inactive","No Streams"
79,79,0,4,3,725,725,990,1,00008001,1,0,0,0,0,"Inactive","No Streams"
80,80,0,4,3,717,717,991,1,00008001,1,0,0,0,0,"Inactive","No Streams"
81,81,0,4,3,723,723,992,1,00008001,1,0,0,0,0,"Inactive","No Streams"
82,82,0,4,3,718,718,993,1,00008001,1,0,0,0,0,"Inactive","No Streams"
83,83,0,4,3,720,720,994,1,00008001,1,0,0,0,0,"Inactive","No Streams"
84,84,0,4,3,720,720,995,1,00008001,1,0,0,0,0,"Inactive","No Streams"
85,85,0,4,3,713,713,996,1,00008001,1,0,0,0,0,"Inactive","No Streams"
86,86,0,4,3,711,711,997,1,00008001,1,0,0,0,0,"Inactive","No Streams"
87,87,0,4,3,724,724,998,1,00008001,1,0,0,0,0,"Inactive","No Streams"
88,88,0,4,3,720,720,999,1,00008001,1,0,0,0,0,"Inactive","No Streams"
89,89,0,4,3,709,709,1000,1,00008001,1,0,0,0,0,"Inactive","No Streams"
90,90,0,4,3,714,714,1001,1,00008001,1,0,0,0,0,"Inactive","No Streams"
91,91,0,4,3,724,724,1002,1,00008001,1,0,0,0,0,"Inactive","No Streams"
92,92,0,4,3,728,728,1003,1,00008001,1,0,0,0,0,"Inactive","No Streams"
93,93,0,4,3,721,721,1004,1,00008001,1,0,0,0,0,"Inactive","No Streams"
94,94,0,4,3,718,718,1005,1,00008001,1,0,0,0,0,"Inactive","No Streams"
95,95,0,4,3,712,712,1006,1,00008001,1,0,0,0,0,"Inactive","No Streams"
96,96,0,4,3,711,711,1007,1,00008001,1,0,0,0,0,"Inactive","No Streams"
97,97,0,4,3,718,718,1008,1,00008001,1,0,0,0,0,"Inactive","No Streams"
98,98,0,4,3,708,708,1009,1,00008001,1,0,0,0,0,"Inactive","No Streams"
99,99,0,4,3,721,721,1010,1,00008001,1,0,0,0,0,"Inactive","No Streams"
100,100,0,4,3,708,708,1011,1,00008001,1,0,0,0,0,"Inactive","No Streams"
101,101,0,4,3,724,724,1012,1,00008001,1,0,0,0,0,"Inactive","No Streams"
102,102,0,4,3,726,726,1013,1,00008001,1,0,0,0,0,"Inactive","No Streams"
103,103,0,4,3,721,721,1014,1,00008001,1,0,0,0,0,"Inactive","No Streams"
104,104,0,4,3,708,708,1015,1,00008001,1,0,0,0,0,"Inactive","No Streams"
105,105,0,4,3,701,701,1016,1,00008001,1,0,0,0,0,"Inactive","No Streams"
106,106,0,4,3,707,707,1017,1,00008001,1,0,0,0,0,"Inactive","No Streams"
107,107,0,4,3,724,724,1018,1,00008001,1,0,0,0,0,"Inactive","No Streams"
108,108,0,4,3,711,711,1019,1,00008001,1,0,0,0,0,"Inactive","No Streams"
109,109,0,4,3,712,712,1020,1,00008001,1,0,0,0,0,"Inactive","No Streams"
110,110,0,4,3,708,708,1021,1,00008001,1,0,0,0,0,"Inactive","No Streams"
111,111,0,4,0,704,704,1022,1,00008001,1,0,0,0,0,"Inactive","No Streams"
112,112,0,4,0,727,727,1023,1,00008001,1,0,0,0,0,"Inactive","No Streams"
113,113,0,4,0,335,335,0,1,00008001,1,0,0,0,0,"Inactive","No Streams"
114,114,0,0,3,1208,1208,1,1,00008001,1,0,0,0,0,"Inactive","No Streams"
115,115,0,0,3,1213,1213,2,1,00008001,1,0,0,0,0,"Inactive","No Streams"
116,116,0,1,3,1170,1170,3,1,00008001,1,2863311530,1,0,0,"Inactive","No Streams"
117,117,0,2,3,1129,1129,4,1,00008001,1,877985792,1,0,0,"Inactive","No Streams"
118,118,0,3,3,1099,1099,5,1,00008001,1,502077,1,0,0,"Inactive","No Streams"
119,119,0,4,3,1094,1094,6,1,00008001,1,0,0,0,0,"Inactive","No Streams"
120,120,0,4,3,1096,1096,7,1,00008001,1,0,0,0,0,"Inactive","No Streams"
121,121,0,4,3,1066,1066,8,1,00008001,1,0,0,0,0,"Inactive","No Streams"
122,122,0,4,3,1083,1083,9,1,00008001,1,0,0,0,0,"Inactive","No Streams"
123,123,0,4,3,1140,1140,10,1,00008001,1,0,0,0,0,"Inactive","No Streams"
124,124,0,4,3,1126,1126,11,1,00008001,1,0,0,0,0,"Inactive","No Streams"
125,125,0,4,3,1158,1158,12,1,00008001,1,0,0,0,0,"Inactive","No Streams"
126,126,0,4,3,1204,1204,13,1,00008001,1,0,0,0,0,"Inactive","No Streams"
127,127,0,4,3,1159,1159,14,1,00008001,1,0,0,0,0,"Inactive","No Streams"
128,128,0,4,3,1114,1114,15,1,00008001,1,0,0,0,0,"Inactive","No Streams"
129,129,0,4,3,1132,1132,16,1,00008001,1,0,0,0,0,"Inactive","No Streams"
130,130,0,4,3,1151,1151,17,1,00008001,1,0,0,0,0,"Inactive","No Streams"
131,131,0,4,3,1135,1135,18,1,00008001,1,0,0,0,0,"Inactive","No Streams"
132,132,0,4,3,1124,1124,19,1,00008001,1,0,0,0,0,"Inactive","No Streams"
133,133,0,4,3,1139,1139,20,1,00008001,1,0,0,0,0,"Inactive","No Streams"
134,134,0,4,3,1129,1129,21,1,00008001,1,0,0,0,0,"Inactive","No Streams"
135,135,0,4,3,1138,1138,22,1,00008001,1,0,0,0,0,"Inactive","No Streams"
136,136,0,4,3,1193,1193,23,1,00008001,1,0,0,0,0,"Inactive","No Streams"
137,137,0,4,3,1148,1148,24,1,00008001,1,0,0,0,0,"Inactive","No Streams"
138,138,0,4,3,1163,1163,25,1,00008001,1,0,0,0,0,"Inactive","No Streams"
139,139,0,4,3,1211,1211,26,1,00008001,1,0,0,0,0,"Inactive","No Streams"
140,140,0,4,3,1158,1158,27,1,00008001,1,0,0,0,0,"Inactive","No Streams"
141,141,0,4,3,1164,1164,28,1,00008001,1,0,0,0,0,"Inactive","No Streams"
142,142,0,4,3,1166,1166,29,1,00008001,1,0,0,0,0,"Inactive","No Streams"
143,143,0,4,3,1147,1147,30,1,00008001,1,0,0,0,0,"Inactive","No Streams"
144,144,0,4,3,1129,1129,31,1,00008001,1,0,0,0,0,"Inactive","No Streams"
145,145,0,4,3,1145,1145,32,1,00008001,1,0,0,0,0,"Inactive","No Streams"
146,146,0,4,3,1146,1146,33,1,00008001,1,0,0,0,0,"Inactive","No Streams"
147,147,0,4,3,1116,1116,34,1,00008001,1,0,0,0,0,"Inactive","No Streams"
148,148,0,4,3,1169,1169,35,1,00008001,1,0,0,0,0,"Inactive","No Streams"
149,149,0,4,3,1158,1158,36,1,00008001,1,0,0,0,0,"Inactive","No Streams"
150,150,0,4,3,1162,1162,37,1,00008001,1,0,0,0,0,"Inactive","No Streams"
151,151,0,4,3,1167,1167,38,1,00008001,1,0,0,0,0,"Inactive","No Streams"
152,152,0,4,3,1199,1199,39,1,00008001,1,0,0,0,0,"Inactive","No Streams"
153,153,0,4,3,1179,1179,40,1,00008001,1,0,0,0,0,"Inactive","No Streams"
154,154,0,4,3,1157,1157,41,1,00008001,1,0,0,0,0,"Inactive","No Streams"
155,155,0,4,3,1240,1240,42,1,00008001,1,0,0,0,0,"Inactive","No Streams"
156,156,0,4,3,1205,1205,43,1,00008001,1,0,0,0,0,"Inactive","No Streams"
157,157,0,4,3,1151,1151,44,1,00008001,1,0,0,0,0,"Inactive","No Streams"
158,158,0,4,3,1174,1174,45,1,00008001,1,0,0,0,0,"Inactive","No Streams"
159,159,0,4,3,1191,1191,46,1,00008001,1,0,0,0,0,"Inactive","No Streams"
160,160,0,4,3,1193,1193,47,1,00008001,1,0,0,0,0,"Inactive","No Streams"
161,161,0,4,3,1215,1215,48,1,00008001,1,0,0,0,0,"Inactive","No Streams"
162,162,0,4,3,1182,1182,49,1,00008001,1,0,0,0,0,"Inactive","No Streams"
163,163,0,4,3,1180,1180,50,1,00008001,1,0,0,0,0,"Inactive","No Streams"
164,164,0,4,3,1155,1155,51,1,00008001,1,0,0,0,0,"Inactive","No Streams"
165,165,0,4,3,1141,1141,52,1,00008001,1,0,0,0,0,"Inactive","No Streams"
166,166,0,4,3,1105,1105,53,1,00008001,1,0,0,0,0,"Inactive","No Streams"
167,167,0,4,3,1125,1125,54,1,00008001,1,0,0,0,0,"Inactive","No Streams"
168,168,0,4,3,1116,1116,55,1,00008001,1,0,0,0,0,"Inactive","No Streams"
169,169,0,4,3,1114,1114,56,1,00008001,1,0,0,0,0,"Inactive","No Streams"
170,170,0,4,3,1144,1144,57,1,00008001,1,0,0,0,0,"Inactive","No Streams"
171,171,0,4,3,1140,1140,58,1,00008001,1,0,0,0,0,"Inactive","No Streams"
172,172,0,4,3,1070,1070,59,1,00008001,1,0,0,0,0,"Inactive","No Streams"
173,173,0,4,3,1053,1053,60,1,00008001,1,0,0,0,0,"Inactive","No Streams"
174,174,0,4,3,1080,1080,61,1,00008001,1,0,0,0,0,"Inactive","No Streams"
175,175,0,4,3,1084,1084,62,1,00008001,1,0,0,0,0,"Inactive","No Streams"
176,176,0,4,3,1073,1073,63,1,00008001,1,0,0,0,0,"Inactive","No Streams"
177,177,0,4,3,1086,1086,64,1,00008001,1,0,0,0,0,"Inactive","No Streams"
178,178,0,4,3,1129,1129,65,1,00008001,1,0,0,0,0,"Inactive","No Streams"
179,179,0,4,3,1112,1112,66,1,00008001,1,0,0,0,0,"Inactive","No Streams"
180,180,0,4,3,1122,1122,67,1,00008001,1,0,0,0,0,"Inactive","No Streams"
181,181,0,4,3,1103,1103,68,1,00008001,1,0,0,0,0,"Inactive","No Streams"
182,182,0,4,3,1080,1080,69,1,00008001,1,0,0,0,0,"Inactive","No Streams"
183,183,0,4,3,1063,1063,70,1,00008001,1,0,0,0,0,"Inactive","No Streams"
184,184,0,4,3,1056,1056,71,1,00008001,1,0,0,0,0,"Inactive","No Streams"
185,185,0,4,3,1047,1047,72,1,00008001,1,0,0,0,0,"Inactive","No Streams"
186,186,0,4,3,1024,1024,73,1,00008001,1,0,0,0,0,"Inactive","No Streams"
187,187,0,4,3,1042,1042,74,1,00008001,1,0,0,0,0,"Inactive","No Streams"
188,188,0,4,3,1052,1052,75,1,00008001,1,0,0,0,0,"Inactive","No Streams"
189,189,0,4,3,1070,1070,76,1,00008001,1,0,0,0,0,"Inactive","No Streams"
190,190,0,4,3,1056,1056,77,1,00008001,1,0,0,0,0,"Inactive","No Streams"
191,191,0,4,3,1028,1028,78,1,00008001,1,0,0,0,0,"Inactive","No Streams"
192,192,0,4,3,1002,1002,79,1,00008001,1,0,0,0,0,"Inactive","No Streams"
193,193,0,4,3,977,977,80,1,00008001,1,0,0,0,0,"Inactive","No Streams"
194,194,0,4,3,969,969,81,1,00008001,1,0,0,0,0,"Inactive","No Streams"
195,195,0,4,3,950,950,82,1,00008001,1,0,0,0,0,"Inactive","No Streams"
196,196,0,4,3,926,926,83,1,00008001,1,0,0,0,0,"Inactive","No Streams"
197,197,0,4,3,903,903,84,1,00008001,1,0,0,0,0,"Inactive","No Streams"
198,198,0,4,3,900,900,85,1,00008001,1,0,0,0,0,"Inactive","No Streams"
199,199,0,4,3,928,928,86,1,00008001,1,0,0,0,0,"Inactive","No Streams"
200,200,0,4,3,911,911,87,1,00008001,1,0,0,0,0,"Inactive","No Streams"
201,201,0,4,3,898,898,88,1,00008001,1,0,0,0,0,"Inactive","No Streams"
202,202,0,4,3,869,869,89,1,00008001,1,0,0,0,0,"Inactive","No Streams"
203,203,0,4,3,865,865,90,1,00008001,1,0,0,0,0,"Inactive","No Streams"
204,204,0,4,3,854,854,91,1,00008001,1,0,0,0,0,"Inactive","No Streams"
205,205,0,4,3,841,841,92,1,00008001,1,0,0,0,0,"Inactive","No Streams"
206,206,0,4,3,844,844,93,1,00008001,1,0,0,0,0,"Inactive","No Streams"
207,207,0,4,3,842,842,94,1,00008001,1,0,0,0,0,"Inactive","No Streams"
208,208,0,4,3,823,823,95,1,00008001,1,0,0,0,0,"Inactive","No Streams"
209,209,0,4,3,801,801,96,1,00008001,1,0,0,0,0,"Inactive","No Streams"
210,210,0,4,3,802,802,97,1,00008001,1,0,0,0,0,"Inactive","No Streams"
211,211,0,4,3,810,810,98,1,00008001,1,0,0,0,0,"Inactive","No Streams"
212,212,0,4,3,819,819,99,1,00008001,1,0,0,0,0,"Inactive","No Streams"
213,213,0,4,3,803,803,100,1,00008001,1,0,0,0,0,"Inactive","No Streams"
214,214,0,4,3,791,791,101,1,00008001,1,0,0,0,0,"Inactive","No Streams"
215,215,0,4,3,799,799,102,1,00008001,1,0,0,0,0,"Inactive","No Streams"
216,216,0,4,3,785,785,103,1,00008001,1,0,0,0,0,"Inactive","No Streams"
217,217,0,4,3,786,786,104,1,00008001,1,0,0,0,0,"Inactive","No Streams"
218,218,0,4,3,788,788,105,1,00008001,1,0,0,0,0,"Inactive","No Streams"
219,219,0,4,3,787,787,106,1,00008001,1,0,0,0,0,"Inactive","No Streams"
220,220,0,4,3,783,783,107,1,00008001,1,0,0,0,0,"Inactive","No Streams"
221,221,0,4,3,785,785,108,1,00008001,1,0,0,0,0,"Inactive","No Streams"
222,222,0,4,3,783,783,109,1,00008001,1,0,0,0,0,"Inactive","No Streams"
223,223,0,4,3,783,783,110,1,00008001,1,0,0,0,0,"Inactive","No Streams"
224,224,0,4,3,772,772,111,1,00008001,1,0,0,0,0,"Inactive","No Streams"
225,225,0,4,3,776,776,112,1,00008001,1,0,0,0,0,"Inactive","No Streams"
226,226,0,4,3,772,772,113,1,00008001,1,0,0,0,0,"Inactive","No Streams"
227,227,0,4,3,768,768,114,1,00008001,1,0,0,0,0,"Inactive","No Streams"
228,228,0,4,3,774,774,115,1,00008001,1,0,0,0,0,"Inactive","No Streams"
229,229,0,4,3,771,771,116,1,00008001,1,0,0,0,0,"Inactive","No Streams"
230,230,0,4,3,776,776,117,1,00008001,1,0,0,0,0,"Inactive","No Streams"
231,231,0,4,3,773,773,118,1,00008001,1,0,0,0,0,"Inactive","No Streams"
232,232,0,4,3,761,761,119,1,00008001,1,0,0,0,0,"Inactive","No Streams"
233,233,0,4,3,786,786,120,1,00008001,1,0,0,0,0,"Inactive","No Streams"
234,234,0,4,3,763,763,121,1,00008001,1,0,0,0,0,"Inactive","No Streams"
235,235,0,4,3,786,786,122,1,00008001,1,0,0,0,0,"Inactive","No Streams"
236,236,0,4,3,774,774,123,1,00008001,1,0,0,0,0,"Inactive","No Streams"
237,237,0,4,3,770,770,124,1,00008001,1,0,0,0,0,"Inactive","No Streams"
238,238,0,4,3,759,759,125,1,00008001,1,0,0,0,0,"Inactive","No Streams"
239,239,0,4,3,761,761,126,1,00008001,1,0,0,0,0,"Inactive","No Streams"
240,240,0,4,3,759,759,127,1,00008001,1,0,0,0,0,"Inactive","No Streams"
241,241,0,4,3,767,767,128,1,00008001,1,0,0,0,0,"Inactive","No Streams"
242,242,0,4,3,766,766,129,1,00008001,1,0,0,0,0,"Inactive","No Streams"
243,243,0,4,3,766,766,130,1,00008001,1,0,0,0,0,"Inactive","No Streams"
244,244,0,4,3,768,768,131,1,00008001,1,0,0,0,0,"Inactive","No Streams"
245,245,0,4,3,764,764,132,1,00008001,1,0,0,0,0,"Inactive","No Streams"
246,246,0,4,3,768,768,133,1,00008001,1,0,0,0,0,"Inactive","No Streams"
247,247,0,4,3,749,749,134,1,00008001,1,0,0,0,0,"Inactive","No Streams"
248,248,0,4,3,758,758,135,1,00008001,1,0,0,0,0,"Inactive","No Streams"
249,249,0,4,3,770,770,136,1,00008001,1,0,0,0,0,"Inactive","No Streams"
250,250,0,4,3,772,772,137,1,00008001,1,0,0,0,0,"Inactive","No Streams"
251,251,0,4,3,771,771,138,1,00008001,1,0,0,0,0,"Inactive","No Streams"
252,252,0,4,3,774,774,139,1,00008001,1,0,0,0,0,"Inactive","No Streams"
253,253,0,4,3,765,765,140,1,00008001,1,0,0,0,0,"Inactive","No Streams"
254,254,0,4,3,768,768,141,1,00008001,1,0,0,0,0,"Inactive","No Streams"
255,255,0,4,3,748,748,142,1,00008001,1,0,0,0,0,"Inactive","No Streams"
256,256,0,4,3,754,754,143,1,00008001,1,0,0,0,0,"Inactive","No Streams"
257,257,0,4,3,760,760,144,1,00008001,1,0,0,0,0,"Inactive","No Streams"
258,258,0,4,3,758,758,145,1,00008001,1,0,0,0,0,"Inactive","No Streams"
259,259,0,4,3,752,752,146,1,00008001,1,0,0,0,0,"Inactive","No Streams"
260,260,0,4,3,764,764,147,1,00008001,1,0,0,0,0,"Inactive","No Streams"
261,261,0,4,3,756,756,148,1,00008001,1,0,0,0,0,"Inactive","No Streams"
262,262,0,4,3,764,764,149,1,00008001,1,0,0,0,0,"Inactive","No Streams"
263,263,0,4,3,758,758,150,1,00008001,1,0,0,0,0,"Inactive","No Streams"
264,264,0,4,3,761,761,151,1,00008001,1,0,0,0,0,"Inactive","No Streams"
265,265,0,4,3,756,756,152,1,00008001,1,0,0,0,0,"Inactive","No Streams"
266,266,0,4,3,752,752,153,1,00008001,1,0,0,0,0,"Inactive","No Streams"
267,267,0,4,3,756,756,154,1,00008001,1,0,0,0,0,"Inactive","No Streams"
268,268,0,4,3,758,758,155,1,00008001,1,0,0,0,0,"Inactive","No Streams"
269,269,0,4,3,756,756,156,1,00008001,1,0,0,0,0,"Inactive","No Streams"
